;$FILEVERSION=1.1
;$STARTTIME=45965.9998558565
;
;   Start time: 4/11/2025 23:59:47.546.0
;   Generated by PCAN-View v5.3.2.952
;
;   Message Number
;   |         Time Offset (ms)
;   |         |        Type
;   |         |        |        ID (hex)
;   |         |        |        |     Data Length
;   |         |        |        |     |   Data Bytes (hex) ...
;   |         |        |        |     |   |
;---+--   ----+----  --+--  ----+---  +  -+ -- -- -- -- -- -- --
     1)      3555.8  Tx         0420  1  69 
     2)      3561.7  Rx         0690  2  00 00 
     3)      4181.0  Tx         0420  1  69 
     4)      4186.8  Rx         0690  2  00 00 
     5)      4575.3  Tx         0420  1  69 
     6)      4581.0  Rx         0690  2  00 14 
     7)      4961.5  Tx         0420  1  69 
     8)      4967.1  Rx         0690  2  00 68 
     9)      5337.3  Tx         0420  1  69 
    10)      5342.8  Rx         0690  2  00 72 
    11)      5759.6  Tx         0420  1  69 
    12)      5765.2  Rx         0690  2  00 99 
    13)      6211.9  Tx         0420  1  69 
    14)      6217.3  Rx         0690  2  00 AB 
    15)      6634.9  Tx         0420  1  69 
    16)      6640.3  Rx         0690  2  00 D6 
    17)      7038.1  Tx         0420  1  69 
    18)      7043.5  Rx         0690  2  00 F1 
    19)      7557.9  Tx         0420  1  69 
    20)      7563.2  Rx         0690  2  01 24 
    21)      8147.8  Tx         0420  1  69 
    22)      8153.2  Rx         0690  2  01 4F 
    23)      8618.3  Tx         0420  1  69 
    24)      8623.6  Rx         0690  2  01 79 
    25)      9071.0  Tx         0420  1  69 
    26)      9076.2  Rx         0690  2  01 B9 
    27)      9509.1  Tx         0420  1  69 
    28)      9514.3  Rx         0690  2  01 EC 
    29)      9899.6  Tx         0420  1  69 
    30)      9904.8  Rx         0690  2  02 24 
    31)     10307.6  Tx         0420  1  69 
    32)     10312.7  Rx         0690  2  02 3A 
    33)     10698.6  Tx         0420  1  69 
    34)     10703.7  Rx         0690  2  02 40 
    35)     11226.2  Tx         0420  1  69 
    36)     11231.2  Rx         0690  2  02 84 
    37)     11868.6  Tx         0420  1  69 
    38)     11873.7  Rx         0690  2  02 96 
    39)     12275.7  Tx         0420  1  69 
    40)     12280.6  Rx         0690  2  02 E2 
    41)     12711.2  Tx         0420  1  69 
    42)     12716.1  Rx         0690  2  03 1F 
    43)     13306.5  Tx         0420  1  69 
    44)     13311.2  Rx         0690  2  03 4A 
    45)     13807.7  Tx         0420  1  69 
    46)     13812.5  Rx         0690  2  03 8F 
    47)     14260.7  Tx         0420  1  69 
    48)     14265.4  Rx         0690  2  03 D0 
    49)     14651.5  Tx         0420  1  69 
    50)     14656.1  Rx         0690  2  03 FF 
    51)     15118.2  Tx         0420  1  69 
    52)     15122.7  Rx         0690  2  03 FE 
    53)     15807.9  Tx         0420  1  69 
    54)     15812.4  Rx         0690  2  03 FF 
    55)     16728.2  Tx         0420  1  69 
    56)     16732.3  Rx         0690  2  03 FC 
